T3CA4 000:079.459   SEGGER J-Link V7.00 Log File
T3CA4 000:079.607   DLL Compiled: Apr  8 2021 14:30:05
T3CA4 000:079.613   Logging started @ 2022-06-02 09:03
T3CA4 000:079.619 - 79.622ms
T3CA4 000:079.634 JLINK_SetWarnOutHandler(...)
T3CA4 000:079.642 - 0.010ms
T3CA4 000:079.650 JLINK_OpenEx(...)
T3CA4 000:081.843   Firmware: J-Link ARM-OB STM32 compiled Aug 22 2012 19:52:04
T3CA4 000:082.729   Firmware: J-Link ARM-OB STM32 compiled Aug 22 2012 19:52:04
T3CA4 000:088.001   Hardware: V7.00
T3CA4 000:088.023   S/N: 20090928
T3CA4 000:088.031   OEM: SEGGER
T3CA4 000:088.039   Feature(s): RDI,FlashDL,FlashBP,JFlash,GDBFull
T3CA4 000:090.107   TELNET listener socket opened on port 19021
T3CA4 000:090.479   WEBSRV Starting webserver
T3CA4 000:090.662   WEBSRV Webserver running on local port 19080
T3CA4 000:090.689 - 11.042ms returns "O.K."
T3CA4 000:090.710 JLINK_GetEmuCaps()
T3CA4 000:090.717 - 0.009ms returns 0x88EA5833
T3CA4 000:090.729 JLINK_TIF_GetAvailable(...)
T3CA4 000:091.196 - 0.475ms
T3CA4 000:091.213 JLINK_SetErrorOutHandler(...)
T3CA4 000:091.220 - 0.009ms
T3CA4 000:091.247 JLINK_ExecCommand("ProjectFile = "F:\ZY_Data\G¶Ë\20220601·¢²¼´úÂë\ZYGYD_A_V0.2_1.3\Project\JLinkSettings.ini"", ...). 
T3CA4 000:102.425   Ref file found at: C:\Keil_v5\ARM\Segger\JLinkDevices.ref
T3CA4 000:102.648   XML referenced by ref file: C:\Program Files (x86)\SEGGER\JLink\JLinkDevices.xml
T3CA4 000:103.624   C:\Program Files (x86)\SEGGER\JLink\JLinkDevices.xml evaluated successfully.
T3CA4 000:212.224 - 121.188ms returns 0x00
T3CA4 000:218.936 JLINK_ExecCommand("Device = STM32F103CB", ...). 
T3CA4 000:222.666   Device "STM32F103CB" selected.
T3CA4 000:223.090 - 4.139ms returns 0x00
T3CA4 000:223.125 JLINK_GetHardwareVersion()
T3CA4 000:223.147 - 0.024ms returns 70000
T3CA4 000:223.161 JLINK_GetDLLVersion()
T3CA4 000:223.167 - 0.008ms returns 70000
T3CA4 000:223.175 JLINK_GetOEMString(...)
T3CA4 000:223.195 JLINK_GetFirmwareString(...)
T3CA4 000:223.200 - 0.008ms
T3CA4 000:240.391 JLINK_GetDLLVersion()
T3CA4 000:240.408 - 0.020ms returns 70000
T3CA4 000:240.417 JLINK_GetCompileDateTime()
T3CA4 000:240.422 - 0.008ms
T3CA4 000:243.048 JLINK_GetFirmwareString(...)
T3CA4 000:243.062 - 0.017ms
T3CA4 000:252.622 JLINK_GetHardwareVersion()
T3CA4 000:252.642 - 0.023ms returns 70000
T3CA4 000:255.435 JLINK_GetSN()
T3CA4 000:255.450 - 0.017ms returns 20090928
T3CA4 000:258.864 JLINK_GetOEMString(...)
T3CA4 000:270.708 JLINK_TIF_Select(JLINKARM_TIF_SWD)
T3CA4 000:271.925 - 1.227ms returns 0x00
T3CA4 000:271.943 JLINK_HasError()
T3CA4 000:271.963 JLINK_SetSpeed(5000)
T3CA4 000:272.345 - 0.387ms
T3CA4 000:272.358 JLINK_GetId()
T3CA4 000:277.889   InitTarget() start
T3CA4 000:277.916    J-Link Script File: Executing InitTarget()
T3CA4 000:307.937   InitTarget() end
T3CA4 000:313.088   Found SW-DP with ID 0x1BA01477
T3CA4 000:321.914   Old FW that does not support reading DPIDR via DAP jobs
T3CA4 000:334.199   DPv0 detected
T3CA4 000:337.738   Scanning AP map to find all available APs
T3CA4 000:348.259   AP[1]: Stopped AP scan as end of AP map has been reached
T3CA4 000:351.223   AP[0]: AHB-AP (IDR: 0x14770011)
T3CA4 000:353.923   Iterating through AP map to find AHB-AP to use
T3CA4 000:368.016   AP[0]: Core found
T3CA4 000:374.058   AP[0]: AHB-AP ROM base: 0xE00FF000
T3CA4 000:383.562   CPUID register: 0x411FC231. Implementer code: 0x41 (ARM)
T3CA4 000:390.120   Found Cortex-M3 r1p1, Little endian.
T3CA4 000:491.895   -- Max. mem block: 0x00002C18
T3CA4 000:492.292   CPU_ReadMem(4 bytes @ 0xE000EDF0)
T3CA4 000:493.167   CPU_WriteMem(4 bytes @ 0xE000EDF0)
T3CA4 000:494.032   CPU_ReadMem(4 bytes @ 0xE0002000)
T3CA4 000:505.359   FPUnit: 6 code (BP) slots and 2 literal slots
T3CA4 000:505.387   CPU_ReadMem(4 bytes @ 0xE000EDFC)
T3CA4 000:506.243   CPU_WriteMem(4 bytes @ 0xE000EDFC)
T3CA4 000:507.073   CPU_ReadMem(4 bytes @ 0xE0001000)
T3CA4 000:507.887   CPU_WriteMem(4 bytes @ 0xE0001000)
T3CA4 000:508.824   CPU_ReadMem(4 bytes @ 0xE000ED88)
T3CA4 000:509.549   CPU_WriteMem(4 bytes @ 0xE000ED88)
T3CA4 000:510.389   CPU_ReadMem(4 bytes @ 0xE000ED88)
T3CA4 000:511.119   CPU_WriteMem(4 bytes @ 0xE000ED88)
T3CA4 000:515.243   CoreSight components:
T3CA4 000:518.564   ROMTbl[0] @ E00FF000
T3CA4 000:518.590   CPU_ReadMem(64 bytes @ 0xE00FF000)
T3CA4 000:520.048   CPU_ReadMem(32 bytes @ 0xE000EFE0)
T3CA4 000:523.817   ROMTbl[0][0]: E000E000, CID: B105E00D, PID: 001BB000 SCS
T3CA4 000:523.838   CPU_ReadMem(32 bytes @ 0xE0001FE0)
T3CA4 000:533.814   ROMTbl[0][1]: E0001000, CID: B105E00D, PID: 001BB002 DWT
T3CA4 000:533.842   CPU_ReadMem(32 bytes @ 0xE0002FE0)
T3CA4 000:538.136   ROMTbl[0][2]: E0002000, CID: B105E00D, PID: 000BB003 FPB
T3CA4 000:538.163   CPU_ReadMem(32 bytes @ 0xE0000FE0)
T3CA4 000:542.039   ROMTbl[0][3]: E0000000, CID: B105E00D, PID: 001BB001 ITM
T3CA4 000:542.058   CPU_ReadMem(32 bytes @ 0xE0040FE0)
T3CA4 000:551.488   ROMTbl[0][4]: E0040000, CID: B105900D, PID: 001BB923 TPIU-Lite
T3CA4 000:552.699 - 280.349ms returns 0x1BA01477
T3CA4 000:552.718 JLINK_GetDLLVersion()
T3CA4 000:552.724 - 0.008ms returns 70000
T3CA4 000:552.732 JLINK_CORE_GetFound()
T3CA4 000:552.738 - 0.008ms returns 0x30000FF
T3CA4 000:552.777 JLINK_GetDebugInfo(0x100 = JLINKARM_ROM_TABLE_ADDR_INDEX)
T3CA4 000:552.791   Value=0xE00FF000
T3CA4 000:552.799 - 0.025ms returns 0
T3CA4 000:556.380 JLINK_GetDebugInfo(0x100 = JLINKARM_ROM_TABLE_ADDR_INDEX)
T3CA4 000:556.398   Value=0xE00FF000
T3CA4 000:556.406 - 0.028ms returns 0
T3CA4 000:556.414 JLINK_GetDebugInfo(0x101 = JLINKARM_DEBUG_INFO_ETM_ADDR_INDEX)
T3CA4 000:556.420   Value=0x00000000
T3CA4 000:556.428 - 0.016ms returns 0
T3CA4 000:556.436 JLINK_ReadMemEx(0xE0041FF0, 0x10 Bytes, Flags = 0x02000004)
T3CA4 000:556.475   CPU_ReadMem(16 bytes @ 0xE0041FF0)
T3CA4 000:557.549   Data:  00 00 00 00 00 00 00 00 00 00 00 00 00 00 00 00
T3CA4 000:557.562 - 1.129ms returns 16 (0x10)
T3CA4 000:557.571 JLINK_GetDebugInfo(0x102 = JLINKARM_DEBUG_INFO_MTB_ADDR_INDEX)
T3CA4 000:557.578   Value=0x00000000
T3CA4 000:557.586 - 0.017ms returns 0
T3CA4 000:557.593 JLINK_GetDebugInfo(0x103 = JLINKARM_DEBUG_INFO_TPIU_ADDR_INDEX)
T3CA4 000:557.599   Value=0xE0040000
T3CA4 000:557.607 - 0.016ms returns 0
T3CA4 000:557.614 JLINK_GetDebugInfo(0x104 = JLINKARM_DEBUG_INFO_ITM_ADDR_INDEX)
T3CA4 000:557.620   Value=0xE0000000
T3CA4 000:557.628 - 0.016ms returns 0
T3CA4 000:557.635 JLINK_GetDebugInfo(0x105 = JLINKARM_DEBUG_INFO_DWT_ADDR_INDEX)
T3CA4 000:557.641   Value=0xE0001000
T3CA4 000:557.648 - 0.016ms returns 0
T3CA4 000:557.656 JLINK_GetDebugInfo(0x106 = JLINKARM_DEBUG_INFO_FPB_ADDR_INDEX)
T3CA4 000:557.661   Value=0xE0002000
T3CA4 000:557.669 - 0.016ms returns 0
T3CA4 000:557.676 JLINK_GetDebugInfo(0x107 = JLINKARM_DEBUG_INFO_NVIC_ADDR_INDEX)
T3CA4 000:557.682   Value=0xE000E000
T3CA4 000:557.690 - 0.016ms returns 0
T3CA4 000:557.697 JLINK_GetDebugInfo(0x10C = JLINKARM_DEBUG_INFO_DBG_ADDR_INDEX)
T3CA4 000:557.702   Value=0xE000EDF0
T3CA4 000:557.710 - 0.016ms returns 0
T3CA4 000:557.717 JLINK_GetDebugInfo(0x01 = Unknown)
T3CA4 000:557.723   Value=0x00000000
T3CA4 000:557.731 - 0.016ms returns 0
T3CA4 000:557.738 JLINK_ReadMemU32(0xE000ED00, 0x1 Items)
T3CA4 000:557.748   CPU_ReadMem(4 bytes @ 0xE000ED00)
T3CA4 000:558.575   Data:  31 C2 1F 41
T3CA4 000:558.588   Debug reg: CPUID
T3CA4 000:558.596 - 0.860ms returns 1 (0x1)
T3CA4 000:558.606 JLINK_GetDebugInfo(0x10F = JLINKARM_DEBUG_INFO_HAS_CORTEX_M_SECURITY_EXT_INDEX)
T3CA4 000:558.612   Value=0x00000000
T3CA4 000:558.620 - 0.017ms returns 0
T3CA4 000:558.628 JLINK_HasError()
T3CA4 000:558.636 JLINK_SetResetType(JLINKARM_CM3_RESET_TYPE_NORMAL)
T3CA4 000:558.642 - 0.008ms returns JLINKARM_CM3_RESET_TYPE_NORMAL
T3CA4 000:558.649 JLINK_Reset()
T3CA4 000:558.671   CPU is running
T3CA4 000:558.681   CPU_WriteMem(4 bytes @ 0xE000EDF0)
T3CA4 000:559.451   CPU is running
T3CA4 000:559.466   CPU_WriteMem(4 bytes @ 0xE000EDFC)
T3CA4 000:569.848   Reset: Halt core after reset via DEMCR.VC_CORERESET.
T3CA4 000:573.753   Reset: Reset device via AIRCR.SYSRESETREQ.
T3CA4 000:573.773   CPU is running
T3CA4 000:573.792   CPU_WriteMem(4 bytes @ 0xE000ED0C)
T3CA4 000:627.423   CPU_ReadMem(4 bytes @ 0xE000EDF0)
T3CA4 000:628.281   CPU_ReadMem(4 bytes @ 0xE000EDF0)
T3CA4 000:629.133   CPU is running
T3CA4 000:629.149   CPU_WriteMem(4 bytes @ 0xE000EDF0)
T3CA4 000:629.981   CPU is running
T3CA4 000:629.995   CPU_WriteMem(4 bytes @ 0xE000EDFC)
T3CA4 000:636.012   CPU_ReadMem(4 bytes @ 0xE000EDF0)
T3CA4 000:640.876   CPU_WriteMem(4 bytes @ 0xE0002000)
T3CA4 000:641.755   CPU_ReadMem(4 bytes @ 0xE000EDFC)
T3CA4 000:642.563   CPU_ReadMem(4 bytes @ 0xE0001000)
T3CA4 000:643.399 - 84.770ms
T3CA4 000:643.432 JLINK_Halt()
T3CA4 000:643.438 - 0.009ms returns 0x00
T3CA4 000:643.447 JLINK_ReadMemU32(0xE000EDF0, 0x1 Items)
T3CA4 000:643.486   CPU_ReadMem(4 bytes @ 0xE000EDF0)
T3CA4 000:644.254   Data:  03 00 03 00
T3CA4 000:644.301   Debug reg: DHCSR
T3CA4 000:644.309 - 0.864ms returns 1 (0x1)
T3CA4 000:644.320 JLINK_WriteU32_64(0xE000EDF0, 0xA05F0003)
T3CA4 000:644.326   Debug reg: DHCSR
T3CA4 000:644.644   CPU_WriteMem(4 bytes @ 0xE000EDF0)
T3CA4 000:645.347 - 1.038ms returns 0 (0x00000000)
T3CA4 000:645.370 JLINK_WriteU32_64(0xE000EDFC, 0x01000000)
T3CA4 000:645.377   Debug reg: DEMCR
T3CA4 000:645.393   CPU_WriteMem(4 bytes @ 0xE000EDFC)
T3CA4 000:646.235 - 0.877ms returns 0 (0x00000000)
T3CA4 000:661.094 JLINK_GetHWStatus(...)
T3CA4 000:661.605 - 0.520ms returns 0
T3CA4 000:676.666 JLINK_GetNumBPUnits(Type = 0xFFFFFF00)
T3CA4 000:676.686 - 0.023ms returns 0x06
T3CA4 000:676.694 JLINK_GetNumBPUnits(Type = 0xF0)
T3CA4 000:676.700 - 0.008ms returns 0x2000
T3CA4 000:676.707 JLINK_GetNumWPUnits()
T3CA4 000:676.713 - 0.008ms returns 4
T3CA4 000:689.907 JLINK_GetSpeed()
T3CA4 000:689.924 - 0.021ms returns 4000
T3CA4 000:695.146 JLINK_ReadMemU32(0xE000E004, 0x1 Items)
T3CA4 000:695.191   CPU_ReadMem(4 bytes @ 0xE000E004)
T3CA4 000:695.924   Data:  01 00 00 00
T3CA4 000:695.946 - 0.802ms returns 1 (0x1)
T3CA4 000:695.958 JLINK_ReadMemU32(0xE000E004, 0x1 Items)
T3CA4 000:695.972   CPU_ReadMem(4 bytes @ 0xE000E004)
T3CA4 000:696.768   Data:  01 00 00 00
T3CA4 000:696.783 - 0.827ms returns 1 (0x1)
T3CA4 000:696.796 JLINK_WriteMemEx(0xE0001000, 0x0000001C Bytes, Flags = 0x02000004)
T3CA4 000:696.803   Data:  01 00 00 00 00 00 00 00 00 00 00 00 00 00 00 00 ...
T3CA4 000:696.834   CPU_WriteMem(28 bytes @ 0xE0001000)
T3CA4 000:698.063 - 1.291ms returns 0x1C
T3CA4 000:698.101 JLINK_Halt()
T3CA4 000:698.107 - 0.009ms returns 0x00
T3CA4 000:698.115 JLINK_IsHalted()
T3CA4 000:698.157 - 0.045ms returns TRUE
T3CA4 000:706.815 JLINK_WriteMem(0x20000000, 0x164 Bytes, ...)
T3CA4 000:706.830   Data:  00 BE 0A E0 0D 78 2D 06 68 40 08 24 40 00 00 D3 ...
T3CA4 000:707.132   CPU_WriteMem(356 bytes @ 0x20000000)
T3CA4 000:712.262 - 5.455ms returns 0x164
T3CA4 000:712.301 JLINK_HasError()
T3CA4 000:712.311 JLINK_WriteReg(R0, 0x08000000)
T3CA4 000:712.338 - 0.030ms returns 0
T3CA4 000:712.347 JLINK_WriteReg(R1, 0x00B71B00)
T3CA4 000:712.353 - 0.009ms returns 0
T3CA4 000:712.360 JLINK_WriteReg(R2, 0x00000001)
T3CA4 000:712.366 - 0.008ms returns 0
T3CA4 000:712.373 JLINK_WriteReg(R3, 0x00000000)
T3CA4 000:712.379 - 0.008ms returns 0
T3CA4 000:712.387 JLINK_WriteReg(R4, 0x00000000)
T3CA4 000:712.393 - 0.008ms returns 0
T3CA4 000:712.400 JLINK_WriteReg(R5, 0x00000000)
T3CA4 000:712.406 - 0.008ms returns 0
T3CA4 000:712.413 JLINK_WriteReg(R6, 0x00000000)
T3CA4 000:712.419 - 0.008ms returns 0
T3CA4 000:712.426 JLINK_WriteReg(R7, 0x00000000)
T3CA4 000:712.432 - 0.008ms returns 0
T3CA4 000:712.439 JLINK_WriteReg(R8, 0x00000000)
T3CA4 000:712.456 - 0.019ms returns 0
T3CA4 000:712.463 JLINK_WriteReg(R9, 0x20000160)
T3CA4 000:712.469 - 0.008ms returns 0
T3CA4 000:712.476 JLINK_WriteReg(R10, 0x00000000)
T3CA4 000:712.482 - 0.008ms returns 0
T3CA4 000:712.489 JLINK_WriteReg(R11, 0x00000000)
T3CA4 000:712.495 - 0.008ms returns 0
T3CA4 000:712.503 JLINK_WriteReg(R12, 0x00000000)
T3CA4 000:712.509 - 0.008ms returns 0
T3CA4 000:712.516 JLINK_WriteReg(R13 (SP), 0x20001000)
T3CA4 000:712.523 - 0.012ms returns 0
T3CA4 000:712.534 JLINK_WriteReg(R14, 0x20000001)
T3CA4 000:712.540 - 0.009ms returns 0
T3CA4 000:712.547 JLINK_WriteReg(R15 (PC), 0x20000038)
T3CA4 000:712.559 - 0.014ms returns 0
T3CA4 000:712.566 JLINK_WriteReg(XPSR, 0x01000000)
T3CA4 000:712.572 - 0.008ms returns 0
T3CA4 000:712.580 JLINK_WriteReg(MSP, 0x20001000)
T3CA4 000:712.586 - 0.023ms returns 0
T3CA4 000:712.608 JLINK_WriteReg(PSP, 0x20001000)
T3CA4 000:712.614 - 0.009ms returns 0
T3CA4 000:712.622 JLINK_WriteReg(CFBP, 0x00000000)
T3CA4 000:712.628 - 0.009ms returns 0
T3CA4 000:712.648 JLINK_SetBPEx(Addr = 0x20000000, Type = 0xFFFFFFF2)
T3CA4 000:712.674   CPU_ReadMem(2 bytes @ 0x20000000)
T3CA4 000:713.480 - 0.846ms returns 0x00000001
T3CA4 000:713.503 JLINK_Go()
T3CA4 000:713.514   CPU_WriteMem(2 bytes @ 0x20000000)
T3CA4 000:714.630   CPU_ReadMem(4 bytes @ 0xE0001000)
T3CA4 000:715.814   CPU_WriteMem(4 bytes @ 0xE0002008)
T3CA4 000:715.861   CPU_WriteMem(4 bytes @ 0xE000200C)
T3CA4 000:715.870   CPU_WriteMem(4 bytes @ 0xE0002010)
T3CA4 000:715.879   CPU_WriteMem(4 bytes @ 0xE0002014)
T3CA4 000:715.887   CPU_WriteMem(4 bytes @ 0xE0002018)
T3CA4 000:715.910   CPU_WriteMem(4 bytes @ 0xE000201C)
T3CA4 000:718.839   CPU_WriteMem(4 bytes @ 0xE0001004)
T3CA4 000:723.503 - 10.013ms
T3CA4 000:723.525 JLINK_IsHalted()
T3CA4 000:727.317   CPU_ReadMem(2 bytes @ 0x20000000)
T3CA4 000:728.079 - 4.563ms returns TRUE
T3CA4 000:728.101 JLINK_ReadReg(R15 (PC))
T3CA4 000:728.110 - 0.012ms returns 0x20000000
T3CA4 000:728.119 JLINK_ClrBPEx(BPHandle = 0x00000001)
T3CA4 000:728.126 - 0.009ms returns 0x00
T3CA4 000:728.135 JLINK_ReadReg(R0)
T3CA4 000:728.142 - 0.009ms returns 0x00000000
T3CA4 000:729.294 JLINK_HasError()
T3CA4 000:729.334 JLINK_WriteReg(R0, 0x08000000)
T3CA4 000:729.358 - 0.026ms returns 0
T3CA4 000:729.366 JLINK_WriteReg(R1, 0x00B71B00)
T3CA4 000:729.372 - 0.009ms returns 0
T3CA4 000:729.379 JLINK_WriteReg(R2, 0x00000001)
T3CA4 000:729.385 - 0.008ms returns 0
T3CA4 000:729.392 JLINK_WriteReg(R3, 0x00000000)
T3CA4 000:729.398 - 0.008ms returns 0
T3CA4 000:729.406 JLINK_WriteReg(R4, 0x00000000)
T3CA4 000:729.412 - 0.008ms returns 0
T3CA4 000:729.419 JLINK_WriteReg(R5, 0x00000000)
T3CA4 000:729.425 - 0.008ms returns 0
T3CA4 000:729.432 JLINK_WriteReg(R6, 0x00000000)
T3CA4 000:729.438 - 0.008ms returns 0
T3CA4 000:729.445 JLINK_WriteReg(R7, 0x00000000)
T3CA4 000:729.451 - 0.008ms returns 0
T3CA4 000:729.458 JLINK_WriteReg(R8, 0x00000000)
T3CA4 000:729.464 - 0.008ms returns 0
T3CA4 000:729.471 JLINK_WriteReg(R9, 0x20000160)
T3CA4 000:729.477 - 0.008ms returns 0
T3CA4 000:729.486 JLINK_WriteReg(R10, 0x00000000)
T3CA4 000:729.492 - 0.021ms returns 0
T3CA4 000:729.512 JLINK_WriteReg(R11, 0x00000000)
T3CA4 000:729.531 - 0.021ms returns 0
T3CA4 000:729.538 JLINK_WriteReg(R12, 0x00000000)
T3CA4 000:729.544 - 0.008ms returns 0
T3CA4 000:729.551 JLINK_WriteReg(R13 (SP), 0x20001000)
T3CA4 000:729.558 - 0.009ms returns 0
T3CA4 000:729.565 JLINK_WriteReg(R14, 0x20000001)
T3CA4 000:729.571 - 0.008ms returns 0
T3CA4 000:729.578 JLINK_WriteReg(R15 (PC), 0x2000007C)
T3CA4 000:729.586 - 0.010ms returns 0
T3CA4 000:729.593 JLINK_WriteReg(XPSR, 0x01000000)
T3CA4 000:729.611 - 0.021ms returns 0
T3CA4 000:729.619 JLINK_WriteReg(MSP, 0x20001000)
T3CA4 000:729.625 - 0.008ms returns 0
T3CA4 000:729.632 JLINK_WriteReg(PSP, 0x20001000)
T3CA4 000:729.638 - 0.009ms returns 0
T3CA4 000:729.645 JLINK_WriteReg(CFBP, 0x00000000)
T3CA4 000:729.651 - 0.008ms returns 0
T3CA4 000:729.659 JLINK_SetBPEx(Addr = 0x20000000, Type = 0xFFFFFFF2)
T3CA4 000:729.666 - 0.020ms returns 0x00000002
T3CA4 000:729.697 JLINK_Go()
T3CA4 000:729.714   CPU_ReadMem(4 bytes @ 0xE0001000)
T3CA4 000:734.083 - 4.413ms
T3CA4 000:734.133 JLINK_IsHalted()
T3CA4 000:734.753 - 0.627ms returns FALSE
T3CA4 000:734.768 JLINK_HasError()
T3CA4 000:757.106 JLINK_IsHalted()
T3CA4 000:761.099   CPU_ReadMem(2 bytes @ 0x20000000)
T3CA4 000:761.913 - 4.820ms returns TRUE
T3CA4 000:761.937 JLINK_ReadReg(R15 (PC))
T3CA4 000:761.947 - 0.072ms returns 0x20000000
T3CA4 000:762.019 JLINK_ClrBPEx(BPHandle = 0x00000002)
T3CA4 000:762.027 - 0.011ms returns 0x00
T3CA4 000:762.035 JLINK_ReadReg(R0)
T3CA4 000:762.041 - 0.009ms returns 0x00000000
T3CA4 000:816.738 JLINK_HasError()
T3CA4 000:816.763 JLINK_WriteReg(R0, 0x00000001)
T3CA4 000:816.774 - 0.013ms returns 0
T3CA4 000:816.782 JLINK_WriteReg(R1, 0x00B71B00)
T3CA4 000:816.788 - 0.009ms returns 0
T3CA4 000:816.796 JLINK_WriteReg(R2, 0x00000001)
T3CA4 000:816.802 - 0.008ms returns 0
T3CA4 000:816.809 JLINK_WriteReg(R3, 0x00000000)
T3CA4 000:816.815 - 0.008ms returns 0
T3CA4 000:816.822 JLINK_WriteReg(R4, 0x00000000)
T3CA4 000:816.828 - 0.008ms returns 0
T3CA4 000:816.835 JLINK_WriteReg(R5, 0x00000000)
T3CA4 000:816.841 - 0.008ms returns 0
T3CA4 000:816.849 JLINK_WriteReg(R6, 0x00000000)
T3CA4 000:816.855 - 0.008ms returns 0
T3CA4 000:816.862 JLINK_WriteReg(R7, 0x00000000)
T3CA4 000:816.868 - 0.008ms returns 0
T3CA4 000:816.875 JLINK_WriteReg(R8, 0x00000000)
T3CA4 000:816.881 - 0.008ms returns 0
T3CA4 000:816.888 JLINK_WriteReg(R9, 0x20000160)
T3CA4 000:816.894 - 0.008ms returns 0
T3CA4 000:816.902 JLINK_WriteReg(R10, 0x00000000)
T3CA4 000:816.908 - 0.008ms returns 0
T3CA4 000:816.915 JLINK_WriteReg(R11, 0x00000000)
T3CA4 000:816.921 - 0.008ms returns 0
T3CA4 000:816.928 JLINK_WriteReg(R12, 0x00000000)
T3CA4 000:816.934 - 0.008ms returns 0
T3CA4 000:816.941 JLINK_WriteReg(R13 (SP), 0x20001000)
T3CA4 000:816.948 - 0.009ms returns 0
T3CA4 000:816.955 JLINK_WriteReg(R14, 0x20000001)
T3CA4 000:816.961 - 0.008ms returns 0
T3CA4 000:816.968 JLINK_WriteReg(R15 (PC), 0x2000006A)
T3CA4 000:816.974 - 0.009ms returns 0
T3CA4 000:816.982 JLINK_WriteReg(XPSR, 0x01000000)
T3CA4 000:816.988 - 0.008ms returns 0
T3CA4 000:816.995 JLINK_WriteReg(MSP, 0x20001000)
T3CA4 000:817.001 - 0.008ms returns 0
T3CA4 000:817.008 JLINK_WriteReg(PSP, 0x20001000)
T3CA4 000:817.014 - 0.008ms returns 0
T3CA4 000:817.021 JLINK_WriteReg(CFBP, 0x00000000)
T3CA4 000:817.027 - 0.008ms returns 0
T3CA4 000:817.046 JLINK_SetBPEx(Addr = 0x20000000, Type = 0xFFFFFFF2)
T3CA4 000:817.054 - 0.010ms returns 0x00000003
T3CA4 000:817.061 JLINK_Go()
T3CA4 000:817.076   CPU_ReadMem(4 bytes @ 0xE0001000)
T3CA4 000:821.856 - 4.810ms
T3CA4 000:821.880 JLINK_IsHalted()
T3CA4 000:825.762   CPU_ReadMem(2 bytes @ 0x20000000)
T3CA4 000:826.618 - 4.749ms returns TRUE
T3CA4 000:826.640 JLINK_ReadReg(R15 (PC))
T3CA4 000:826.650 - 0.013ms returns 0x20000000
T3CA4 000:826.658 JLINK_ClrBPEx(BPHandle = 0x00000003)
T3CA4 000:826.665 - 0.010ms returns 0x00
T3CA4 000:826.673 JLINK_ReadReg(R0)
T3CA4 000:826.679 - 0.009ms returns 0x00000000
T3CA4 000:842.974 JLINK_WriteMem(0x20000000, 0x164 Bytes, ...)
T3CA4 000:842.988   Data:  00 BE 0A E0 0D 78 2D 06 68 40 08 24 40 00 00 D3 ...
T3CA4 000:843.009   CPU_WriteMem(356 bytes @ 0x20000000)
T3CA4 000:848.026 - 5.068ms returns 0x164
T3CA4 000:848.086 JLINK_HasError()
T3CA4 000:848.097 JLINK_WriteReg(R0, 0x08000000)
T3CA4 000:848.107 - 0.012ms returns 0
T3CA4 000:848.114 JLINK_WriteReg(R1, 0x00B71B00)
T3CA4 000:848.120 - 0.009ms returns 0
T3CA4 000:848.128 JLINK_WriteReg(R2, 0x00000002)
T3CA4 000:848.133 - 0.008ms returns 0
T3CA4 000:848.141 JLINK_WriteReg(R3, 0x00000000)
T3CA4 000:848.147 - 0.008ms returns 0
T3CA4 000:848.154 JLINK_WriteReg(R4, 0x00000000)
T3CA4 000:848.160 - 0.008ms returns 0
T3CA4 000:848.167 JLINK_WriteReg(R5, 0x00000000)
T3CA4 000:848.173 - 0.008ms returns 0
T3CA4 000:848.180 JLINK_WriteReg(R6, 0x00000000)
T3CA4 000:848.186 - 0.008ms returns 0
T3CA4 000:848.193 JLINK_WriteReg(R7, 0x00000000)
T3CA4 000:848.199 - 0.008ms returns 0
T3CA4 000:848.206 JLINK_WriteReg(R8, 0x00000000)
T3CA4 000:848.212 - 0.008ms returns 0
T3CA4 000:848.219 JLINK_WriteReg(R9, 0x20000160)
T3CA4 000:848.225 - 0.008ms returns 0
T3CA4 000:848.233 JLINK_WriteReg(R10, 0x00000000)
T3CA4 000:848.238 - 0.008ms returns 0
T3CA4 000:848.246 JLINK_WriteReg(R11, 0x00000000)
T3CA4 000:848.252 - 0.008ms returns 0
T3CA4 000:848.259 JLINK_WriteReg(R12, 0x00000000)
T3CA4 000:848.313 - 0.060ms returns 0
T3CA4 000:848.324 JLINK_WriteReg(R13 (SP), 0x20001000)
T3CA4 000:848.330 - 0.009ms returns 0
T3CA4 000:848.338 JLINK_WriteReg(R14, 0x20000001)
T3CA4 000:848.344 - 0.008ms returns 0
T3CA4 000:848.351 JLINK_WriteReg(R15 (PC), 0x20000038)
T3CA4 000:848.357 - 0.008ms returns 0
T3CA4 000:848.364 JLINK_WriteReg(XPSR, 0x01000000)
T3CA4 000:848.370 - 0.008ms returns 0
T3CA4 000:848.377 JLINK_WriteReg(MSP, 0x20001000)
T3CA4 000:848.383 - 0.008ms returns 0
T3CA4 000:848.390 JLINK_WriteReg(PSP, 0x20001000)
T3CA4 000:848.396 - 0.008ms returns 0
T3CA4 000:848.404 JLINK_WriteReg(CFBP, 0x00000000)
T3CA4 000:848.409 - 0.008ms returns 0
T3CA4 000:848.417 JLINK_SetBPEx(Addr = 0x20000000, Type = 0xFFFFFFF2)
T3CA4 000:848.428   CPU_ReadMem(2 bytes @ 0x20000000)
T3CA4 000:849.288 - 0.878ms returns 0x00000004
T3CA4 000:849.303 JLINK_Go()
T3CA4 000:849.312   CPU_WriteMem(2 bytes @ 0x20000000)
T3CA4 000:850.754   CPU_ReadMem(4 bytes @ 0xE0001000)
T3CA4 000:855.503 - 6.211ms
T3CA4 000:855.525 JLINK_IsHalted()
T3CA4 000:859.499   CPU_ReadMem(2 bytes @ 0x20000000)
T3CA4 000:860.292 - 4.802ms returns TRUE
T3CA4 000:860.339 JLINK_ReadReg(R15 (PC))
T3CA4 000:860.348 - 0.012ms returns 0x20000000
T3CA4 000:860.370 JLINK_ClrBPEx(BPHandle = 0x00000004)
T3CA4 000:860.376 - 0.024ms returns 0x00
T3CA4 000:860.399 JLINK_ReadReg(R0)
T3CA4 000:860.405 - 0.009ms returns 0x00000000
T3CA4 000:860.745 JLINK_WriteMem(0x20000164, 0x29C Bytes, ...)
T3CA4 000:860.757   Data:  00 22 00 20 49 01 00 08 55 60 00 08 BD 5D 00 08 ...
T3CA4 000:860.775   CPU_WriteMem(668 bytes @ 0x20000164)
T3CA4 000:869.443 - 8.726ms returns 0x29C
T3CA4 000:869.480 JLINK_WriteMem(0x20000400, 0x164 Bytes, ...)
T3CA4 000:869.487   Data:  53 E0 05 F0 FF F8 43 46 3A 46 04 F0 D9 FF 5A 46 ...
T3CA4 000:869.507   CPU_WriteMem(356 bytes @ 0x20000400)
T3CA4 000:874.609 - 5.139ms returns 0x164
T3CA4 000:874.629 JLINK_HasError()
T3CA4 000:874.639 JLINK_WriteReg(R0, 0x08000000)
T3CA4 000:874.649 - 0.013ms returns 0
T3CA4 000:874.657 JLINK_WriteReg(R1, 0x00000400)
T3CA4 000:874.663 - 0.009ms returns 0
T3CA4 000:874.671 JLINK_WriteReg(R2, 0x20000164)
T3CA4 000:874.677 - 0.009ms returns 0
T3CA4 000:874.684 JLINK_WriteReg(R3, 0x00000000)
T3CA4 000:874.691 - 0.009ms returns 0
T3CA4 000:874.698 JLINK_WriteReg(R4, 0x00000000)
T3CA4 000:874.704 - 0.009ms returns 0
T3CA4 000:874.711 JLINK_WriteReg(R5, 0x00000000)
T3CA4 000:874.717 - 0.008ms returns 0
T3CA4 000:874.725 JLINK_WriteReg(R6, 0x00000000)
T3CA4 000:874.731 - 0.008ms returns 0
T3CA4 000:874.738 JLINK_WriteReg(R7, 0x00000000)
T3CA4 000:874.744 - 0.009ms returns 0
T3CA4 000:874.752 JLINK_WriteReg(R8, 0x00000000)
T3CA4 000:874.758 - 0.009ms returns 0
T3CA4 000:874.765 JLINK_WriteReg(R9, 0x20000160)
T3CA4 000:874.772 - 0.009ms returns 0
T3CA4 000:874.779 JLINK_WriteReg(R10, 0x00000000)
T3CA4 000:874.785 - 0.009ms returns 0
T3CA4 000:874.793 JLINK_WriteReg(R11, 0x00000000)
T3CA4 000:874.799 - 0.009ms returns 0
T3CA4 000:874.806 JLINK_WriteReg(R12, 0x00000000)
T3CA4 000:874.812 - 0.009ms returns 0
T3CA4 000:874.820 JLINK_WriteReg(R13 (SP), 0x20001000)
T3CA4 000:874.827 - 0.009ms returns 0
T3CA4 000:874.834 JLINK_WriteReg(R14, 0x20000001)
T3CA4 000:874.840 - 0.009ms returns 0
T3CA4 000:874.847 JLINK_WriteReg(R15 (PC), 0x200000F4)
T3CA4 000:874.854 - 0.009ms returns 0
T3CA4 000:874.861 JLINK_WriteReg(XPSR, 0x01000000)
T3CA4 000:874.867 - 0.009ms returns 0
T3CA4 000:874.875 JLINK_WriteReg(MSP, 0x20001000)
T3CA4 000:874.881 - 0.008ms returns 0
T3CA4 000:874.888 JLINK_WriteReg(PSP, 0x20001000)
T3CA4 000:874.894 - 0.009ms returns 0
T3CA4 000:874.902 JLINK_WriteReg(CFBP, 0x00000000)
T3CA4 000:874.908 - 0.009ms returns 0
T3CA4 000:874.915 JLINK_SetBPEx(Addr = 0x20000000, Type = 0xFFFFFFF2)
T3CA4 000:874.923 - 0.010ms returns 0x00000005
T3CA4 000:874.931 JLINK_Go()
T3CA4 000:874.944   CPU_ReadMem(4 bytes @ 0xE0001000)
T3CA4 000:879.486 - 4.573ms
T3CA4 000:879.514 JLINK_IsHalted()
T3CA4 000:880.329 - 0.825ms returns FALSE
T3CA4 000:880.348 JLINK_HasError()
T3CA4 000:890.862 JLINK_IsHalted()
T3CA4 000:891.829 - 0.974ms returns FALSE
T3CA4 000:891.856 JLINK_HasError()
T3CA4 000:893.807 JLINK_IsHalted()
T3CA4 000:894.673 - 0.874ms returns FALSE
T3CA4 000:894.702 JLINK_HasError()
T3CA4 000:896.697 JLINK_IsHalted()
T3CA4 000:897.538 - 0.849ms returns FALSE
T3CA4 000:897.555 JLINK_HasError()
T3CA4 000:899.642 JLINK_IsHalted()
T3CA4 000:900.398 - 0.763ms returns FALSE
T3CA4 000:900.413 JLINK_HasError()
T3CA4 000:902.497 JLINK_IsHalted()
T3CA4 000:903.253 - 0.782ms returns FALSE
T3CA4 000:903.288 JLINK_HasError()
T3CA4 000:904.416 JLINK_IsHalted()
T3CA4 000:905.180 - 0.771ms returns FALSE
T3CA4 000:905.195 JLINK_HasError()
T3CA4 000:906.349 JLINK_IsHalted()
T3CA4 000:907.008 - 0.681ms returns FALSE
T3CA4 000:907.038 JLINK_HasError()
T3CA4 000:908.309 JLINK_IsHalted()
T3CA4 000:908.989 - 0.700ms returns FALSE
T3CA4 000:909.017 JLINK_HasError()
T3CA4 000:910.343 JLINK_IsHalted()
T3CA4 000:914.176   CPU_ReadMem(2 bytes @ 0x20000000)
T3CA4 000:915.125 - 4.789ms returns TRUE
T3CA4 000:915.144 JLINK_ReadReg(R15 (PC))
T3CA4 000:915.170 - 0.029ms returns 0x20000000
T3CA4 000:915.179 JLINK_ClrBPEx(BPHandle = 0x00000005)
T3CA4 000:915.186 - 0.009ms returns 0x00
T3CA4 000:915.195 JLINK_ReadReg(R0)
T3CA4 000:915.201 - 0.009ms returns 0x00000000
T3CA4 000:917.366 JLINK_WriteMem(0x20000164, 0x29C Bytes, ...)
T3CA4 000:917.386   Data:  B9 F8 02 91 F5 E9 30 23 83 46 04 F0 2D FF 22 46 ...
T3CA4 000:917.407   CPU_WriteMem(668 bytes @ 0x20000164)
T3CA4 000:925.997 - 8.646ms returns 0x29C
T3CA4 000:926.020 JLINK_WriteMem(0x20000400, 0x164 Bytes, ...)
T3CA4 000:926.028   Data:  CD E9 02 10 D4 E9 1A 23 04 F0 39 FD C4 E9 1A 01 ...
T3CA4 000:926.046   CPU_WriteMem(356 bytes @ 0x20000400)
T3CA4 000:931.191 - 5.186ms returns 0x164
T3CA4 000:931.217 JLINK_HasError()
T3CA4 000:931.227 JLINK_WriteReg(R0, 0x08000400)
T3CA4 000:931.238 - 0.013ms returns 0
T3CA4 000:931.245 JLINK_WriteReg(R1, 0x00000400)
T3CA4 000:931.252 - 0.009ms returns 0
T3CA4 000:931.259 JLINK_WriteReg(R2, 0x20000164)
T3CA4 000:931.265 - 0.008ms returns 0
T3CA4 000:931.272 JLINK_WriteReg(R3, 0x00000000)
T3CA4 000:931.278 - 0.008ms returns 0
T3CA4 000:931.285 JLINK_WriteReg(R4, 0x00000000)
T3CA4 000:931.291 - 0.008ms returns 0
T3CA4 000:931.298 JLINK_WriteReg(R5, 0x00000000)
T3CA4 000:931.304 - 0.008ms returns 0
T3CA4 000:931.311 JLINK_WriteReg(R6, 0x00000000)
T3CA4 000:931.317 - 0.008ms returns 0
T3CA4 000:931.324 JLINK_WriteReg(R7, 0x00000000)
T3CA4 000:931.330 - 0.008ms returns 0
T3CA4 000:931.338 JLINK_WriteReg(R8, 0x00000000)
T3CA4 000:931.343 - 0.008ms returns 0
T3CA4 000:931.351 JLINK_WriteReg(R9, 0x20000160)
T3CA4 000:931.357 - 0.008ms returns 0
T3CA4 000:931.364 JLINK_WriteReg(R10, 0x00000000)
T3CA4 000:931.370 - 0.008ms returns 0
T3CA4 000:931.377 JLINK_WriteReg(R11, 0x00000000)
T3CA4 000:931.383 - 0.008ms returns 0
T3CA4 000:931.390 JLINK_WriteReg(R12, 0x00000000)
T3CA4 000:931.396 - 0.008ms returns 0
T3CA4 000:931.403 JLINK_WriteReg(R13 (SP), 0x20001000)
T3CA4 000:931.410 - 0.009ms returns 0
T3CA4 000:931.417 JLINK_WriteReg(R14, 0x20000001)
T3CA4 000:931.423 - 0.008ms returns 0
T3CA4 000:931.430 JLINK_WriteReg(R15 (PC), 0x200000F4)
T3CA4 000:931.436 - 0.009ms returns 0
T3CA4 000:931.444 JLINK_WriteReg(XPSR, 0x01000000)
T3CA4 000:931.450 - 0.008ms returns 0
T3CA4 000:931.457 JLINK_WriteReg(MSP, 0x20001000)
T3CA4 000:931.463 - 0.008ms returns 0
T3CA4 000:931.470 JLINK_WriteReg(PSP, 0x20001000)
T3CA4 000:931.476 - 0.008ms returns 0
T3CA4 000:931.483 JLINK_WriteReg(CFBP, 0x00000000)
T3CA4 000:931.489 - 0.008ms returns 0
T3CA4 000:931.496 JLINK_SetBPEx(Addr = 0x20000000, Type = 0xFFFFFFF2)
T3CA4 000:931.503 - 0.010ms returns 0x00000006
T3CA4 000:931.511 JLINK_Go()
T3CA4 000:931.524   CPU_ReadMem(4 bytes @ 0xE0001000)
T3CA4 000:936.472 - 4.979ms
T3CA4 000:936.500 JLINK_IsHalted()
T3CA4 000:937.231 - 0.740ms returns FALSE
T3CA4 000:937.249 JLINK_HasError()
T3CA4 000:942.587 JLINK_IsHalted()
T3CA4 000:943.495 - 0.915ms returns FALSE
T3CA4 000:943.514 JLINK_HasError()
T3CA4 000:945.920 JLINK_IsHalted()
T3CA4 000:946.717 - 0.807ms returns FALSE
T3CA4 000:946.736 JLINK_HasError()
T3CA4 000:948.383 JLINK_IsHalted()
T3CA4 000:949.121 - 0.745ms returns FALSE
T3CA4 000:949.138 JLINK_HasError()
T3CA4 000:950.262 JLINK_IsHalted()
T3CA4 000:951.024 - 0.769ms returns FALSE
T3CA4 000:951.038 JLINK_HasError()
T3CA4 000:952.349 JLINK_IsHalted()
T3CA4 000:953.068 - 0.727ms returns FALSE
T3CA4 000:953.083 JLINK_HasError()
T3CA4 000:954.213 JLINK_IsHalted()
T3CA4 000:955.096 - 0.890ms returns FALSE
T3CA4 000:955.110 JLINK_HasError()
T3CA4 000:956.246 JLINK_IsHalted()
T3CA4 000:956.946 - 0.707ms returns FALSE
T3CA4 000:956.962 JLINK_HasError()
T3CA4 000:958.191 JLINK_IsHalted()
T3CA4 000:959.049 - 0.866ms returns FALSE
T3CA4 000:959.064 JLINK_HasError()
T3CA4 000:961.106 JLINK_IsHalted()
T3CA4 000:961.917 - 0.821ms returns FALSE
T3CA4 000:961.935 JLINK_HasError()
T3CA4 000:963.967 JLINK_IsHalted()
T3CA4 000:964.687 - 0.732ms returns FALSE
T3CA4 000:964.709 JLINK_HasError()
T3CA4 000:970.848 JLINK_IsHalted()
T3CA4 000:974.912   CPU_ReadMem(2 bytes @ 0x20000000)
T3CA4 000:975.804 - 4.963ms returns TRUE
T3CA4 000:975.819 JLINK_ReadReg(R15 (PC))
T3CA4 000:975.828 - 0.011ms returns 0x20000000
T3CA4 000:975.835 JLINK_ClrBPEx(BPHandle = 0x00000006)
T3CA4 000:975.842 - 0.009ms returns 0x00
T3CA4 000:975.849 JLINK_ReadReg(R0)
T3CA4 000:975.855 - 0.008ms returns 0x00000000
T3CA4 000:976.330 JLINK_WriteMem(0x20000164, 0x29C Bytes, ...)
T3CA4 000:976.340   Data:  02 46 0B 46 CD E9 04 01 04 F0 2E FD D4 E9 00 23 ...
T3CA4 000:976.355   CPU_WriteMem(668 bytes @ 0x20000164)
T3CA4 000:984.887 - 8.571ms returns 0x29C
T3CA4 000:984.911 JLINK_WriteMem(0x20000400, 0x164 Bytes, ...)
T3CA4 000:984.919   Data:  10 23 04 F0 DD FB DD E9 06 23 04 F0 38 FB DD E9 ...
T3CA4 000:984.938   CPU_WriteMem(356 bytes @ 0x20000400)
T3CA4 000:990.025 - 5.128ms returns 0x164
T3CA4 000:990.050 JLINK_HasError()
T3CA4 000:990.060 JLINK_WriteReg(R0, 0x08000800)
T3CA4 000:990.071 - 0.013ms returns 0
T3CA4 000:990.078 JLINK_WriteReg(R1, 0x00000400)
T3CA4 000:990.085 - 0.009ms returns 0
T3CA4 000:990.092 JLINK_WriteReg(R2, 0x20000164)
T3CA4 000:990.098 - 0.008ms returns 0
T3CA4 000:990.105 JLINK_WriteReg(R3, 0x00000000)
T3CA4 000:990.111 - 0.008ms returns 0
T3CA4 000:990.118 JLINK_WriteReg(R4, 0x00000000)
T3CA4 000:990.124 - 0.008ms returns 0
T3CA4 000:990.131 JLINK_WriteReg(R5, 0x00000000)
T3CA4 000:990.137 - 0.008ms returns 0
T3CA4 000:990.144 JLINK_WriteReg(R6, 0x00000000)
T3CA4 000:990.150 - 0.008ms returns 0
T3CA4 000:990.157 JLINK_WriteReg(R7, 0x00000000)
T3CA4 000:990.163 - 0.008ms returns 0
T3CA4 000:990.170 JLINK_WriteReg(R8, 0x00000000)
T3CA4 000:990.176 - 0.008ms returns 0
T3CA4 000:990.183 JLINK_WriteReg(R9, 0x20000160)
T3CA4 000:990.189 - 0.008ms returns 0
T3CA4 000:990.196 JLINK_WriteReg(R10, 0x00000000)
T3CA4 000:990.202 - 0.008ms returns 0
T3CA4 000:990.210 JLINK_WriteReg(R11, 0x00000000)
T3CA4 000:990.216 - 0.008ms returns 0
T3CA4 000:990.223 JLINK_WriteReg(R12, 0x00000000)
T3CA4 000:990.229 - 0.008ms returns 0
T3CA4 000:990.236 JLINK_WriteReg(R13 (SP), 0x20001000)
T3CA4 000:990.242 - 0.009ms returns 0
T3CA4 000:990.250 JLINK_WriteReg(R14, 0x20000001)
T3CA4 000:990.255 - 0.008ms returns 0
T3CA4 000:990.264 JLINK_WriteReg(R15 (PC), 0x200000F4)
T3CA4 000:990.270 - 0.009ms returns 0
T3CA4 000:990.278 JLINK_WriteReg(XPSR, 0x01000000)
T3CA4 000:990.284 - 0.008ms returns 0
T3CA4 000:990.291 JLINK_WriteReg(MSP, 0x20001000)
T3CA4 000:990.297 - 0.008ms returns 0
T3CA4 000:990.304 JLINK_WriteReg(PSP, 0x20001000)
T3CA4 000:990.310 - 0.008ms returns 0
T3CA4 000:990.317 JLINK_WriteReg(CFBP, 0x00000000)
T3CA4 000:990.323 - 0.008ms returns 0
T3CA4 000:990.330 JLINK_SetBPEx(Addr = 0x20000000, Type = 0xFFFFFFF2)
T3CA4 000:990.338 - 0.010ms returns 0x00000007
T3CA4 000:990.345 JLINK_Go()
T3CA4 000:990.359   CPU_ReadMem(4 bytes @ 0xE0001000)
T3CA4 000:995.108 - 4.770ms
T3CA4 000:995.125 JLINK_IsHalted()
T3CA4 000:995.905 - 0.795ms returns FALSE
T3CA4 000:995.945 JLINK_HasError()
T3CA4 000:997.136 JLINK_IsHalted()
T3CA4 000:997.973 - 0.852ms returns FALSE
T3CA4 000:998.000 JLINK_HasError()
T3CA4 001:000.081 JLINK_IsHalted()
T3CA4 001:000.836 - 0.762ms returns FALSE
T3CA4 001:000.851 JLINK_HasError()
T3CA4 001:002.029 JLINK_IsHalted()
T3CA4 001:002.781 - 0.761ms returns FALSE
T3CA4 001:002.799 JLINK_HasError()
T3CA4 001:004.027 JLINK_IsHalted()
T3CA4 001:004.938 - 0.918ms returns FALSE
T3CA4 001:004.952 JLINK_HasError()
T3CA4 001:006.982 JLINK_IsHalted()
T3CA4 001:007.795 - 0.819ms returns FALSE
T3CA4 001:007.809 JLINK_HasError()
T3CA4 001:008.946 JLINK_IsHalted()
T3CA4 001:009.797 - 0.858ms returns FALSE
T3CA4 001:009.812 JLINK_HasError()
T3CA4 001:011.858 JLINK_IsHalted()
T3CA4 001:012.603 - 0.754ms returns FALSE
T3CA4 001:012.620 JLINK_HasError()
T3CA4 001:014.736 JLINK_IsHalted()
T3CA4 001:015.712 - 0.986ms returns FALSE
T3CA4 001:015.731 JLINK_HasError()
T3CA4 001:022.601 JLINK_IsHalted()
T3CA4 001:023.545 - 0.965ms returns FALSE
T3CA4 001:023.586 JLINK_HasError()
T3CA4 001:025.515 JLINK_IsHalted()
T3CA4 001:029.262   CPU_ReadMem(2 bytes @ 0x20000000)
T3CA4 001:030.035 - 4.547ms returns TRUE
T3CA4 001:030.072 JLINK_ReadReg(R15 (PC))
T3CA4 001:030.082 - 0.012ms returns 0x20000000
T3CA4 001:030.090 JLINK_ClrBPEx(BPHandle = 0x00000007)
T3CA4 001:030.096 - 0.009ms returns 0x00
T3CA4 001:030.104 JLINK_ReadReg(R0)
T3CA4 001:030.110 - 0.009ms returns 0x00000000
T3CA4 001:030.615 JLINK_WriteMem(0x20000164, 0x29C Bytes, ...)
T3CA4 001:030.627   Data:  10 23 04 F0 2B FB DD E9 06 23 04 F0 86 FA DD E9 ...
T3CA4 001:030.644   CPU_WriteMem(668 bytes @ 0x20000164)
T3CA4 001:039.151 - 8.564ms returns 0x29C
T3CA4 001:039.189 JLINK_WriteMem(0x20000400, 0x164 Bytes, ...)
T3CA4 001:039.196   Data:  E5 F9 4A 46 53 46 04 F0 E1 F9 05 46 88 46 D4 E9 ...
T3CA4 001:039.215   CPU_WriteMem(356 bytes @ 0x20000400)
T3CA4 001:044.169 - 4.992ms returns 0x164
T3CA4 001:044.191 JLINK_HasError()
T3CA4 001:044.201 JLINK_WriteReg(R0, 0x08000C00)
T3CA4 001:044.211 - 0.013ms returns 0
T3CA4 001:044.219 JLINK_WriteReg(R1, 0x00000400)
T3CA4 001:044.226 - 0.009ms returns 0
T3CA4 001:044.233 JLINK_WriteReg(R2, 0x20000164)
T3CA4 001:044.239 - 0.009ms returns 0
T3CA4 001:044.247 JLINK_WriteReg(R3, 0x00000000)
T3CA4 001:044.253 - 0.009ms returns 0
T3CA4 001:044.261 JLINK_WriteReg(R4, 0x00000000)
T3CA4 001:044.267 - 0.009ms returns 0
T3CA4 001:044.274 JLINK_WriteReg(R5, 0x00000000)
T3CA4 001:044.280 - 0.009ms returns 0
T3CA4 001:044.288 JLINK_WriteReg(R6, 0x00000000)
T3CA4 001:044.294 - 0.009ms returns 0
T3CA4 001:044.301 JLINK_WriteReg(R7, 0x00000000)
T3CA4 001:044.307 - 0.008ms returns 0
T3CA4 001:044.315 JLINK_WriteReg(R8, 0x00000000)
T3CA4 001:044.321 - 0.009ms returns 0
T3CA4 001:044.328 JLINK_WriteReg(R9, 0x20000160)
T3CA4 001:044.334 - 0.009ms returns 0
T3CA4 001:044.342 JLINK_WriteReg(R10, 0x00000000)
T3CA4 001:044.348 - 0.009ms returns 0
T3CA4 001:044.355 JLINK_WriteReg(R11, 0x00000000)
T3CA4 001:044.361 - 0.008ms returns 0
T3CA4 001:044.369 JLINK_WriteReg(R12, 0x00000000)
T3CA4 001:044.375 - 0.008ms returns 0
T3CA4 001:044.382 JLINK_WriteReg(R13 (SP), 0x20001000)
T3CA4 001:044.389 - 0.010ms returns 0
T3CA4 001:044.397 JLINK_WriteReg(R14, 0x20000001)
T3CA4 001:044.403 - 0.009ms returns 0
T3CA4 001:044.410 JLINK_WriteReg(R15 (PC), 0x200000F4)
T3CA4 001:044.416 - 0.009ms returns 0
T3CA4 001:044.424 JLINK_WriteReg(XPSR, 0x01000000)
T3CA4 001:044.430 - 0.009ms returns 0
T3CA4 001:044.438 JLINK_WriteReg(MSP, 0x20001000)
T3CA4 001:044.444 - 0.009ms returns 0
T3CA4 001:044.451 JLINK_WriteReg(PSP, 0x20001000)
T3CA4 001:044.457 - 0.009ms returns 0
T3CA4 001:044.465 JLINK_WriteReg(CFBP, 0x00000000)
T3CA4 001:044.471 - 0.008ms returns 0
T3CA4 001:044.478 JLINK_SetBPEx(Addr = 0x20000000, Type = 0xFFFFFFF2)
T3CA4 001:044.486 - 0.010ms returns 0x00000008
T3CA4 001:044.494 JLINK_Go()
T3CA4 001:044.508   CPU_ReadMem(4 bytes @ 0xE0001000)
T3CA4 001:048.915 - 4.446ms
T3CA4 001:048.952 JLINK_IsHalted()
T3CA4 001:049.741 - 0.799ms returns FALSE
T3CA4 001:049.760 JLINK_HasError()
T3CA4 001:052.775 JLINK_IsHalted()
T3CA4 001:053.547 - 0.779ms returns FALSE
T3CA4 001:053.562 JLINK_HasError()
T3CA4 001:054.796 JLINK_IsHalted()
T3CA4 001:055.637 - 0.847ms returns FALSE
T3CA4 001:055.651 JLINK_HasError()
T3CA4 001:057.662 JLINK_IsHalted()
T3CA4 001:058.401 - 0.747ms returns FALSE
T3CA4 001:058.418 JLINK_HasError()
T3CA4 001:066.529 JLINK_IsHalted()
T3CA4 001:067.473 - 0.975ms returns FALSE
T3CA4 001:067.526 JLINK_HasError()
T3CA4 001:069.448 JLINK_IsHalted()
T3CA4 001:070.379 - 0.938ms returns FALSE
T3CA4 001:070.393 JLINK_HasError()
T3CA4 001:072.380 JLINK_IsHalted()
T3CA4 001:073.280 - 0.930ms returns FALSE
T3CA4 001:073.318 JLINK_HasError()
T3CA4 001:075.255 JLINK_IsHalted()
T3CA4 001:075.912 - 0.668ms returns FALSE
T3CA4 001:075.933 JLINK_HasError()
T3CA4 001:078.161 JLINK_IsHalted()
T3CA4 001:079.426 - 1.274ms returns FALSE
T3CA4 001:079.444 JLINK_HasError()
T3CA4 001:081.094 JLINK_IsHalted()
T3CA4 001:085.417   CPU_ReadMem(2 bytes @ 0x20000000)
T3CA4 001:086.198 - 5.113ms returns TRUE
T3CA4 001:086.216 JLINK_ReadReg(R15 (PC))
T3CA4 001:086.226 - 0.013ms returns 0x20000000
T3CA4 001:086.234 JLINK_ClrBPEx(BPHandle = 0x00000008)
T3CA4 001:086.240 - 0.009ms returns 0x00
T3CA4 001:086.248 JLINK_ReadReg(R0)
T3CA4 001:086.254 - 0.008ms returns 0x00000000
T3CA4 001:086.785 JLINK_WriteMem(0x20000164, 0x29C Bytes, ...)
T3CA4 001:086.795   Data:  04 23 04 F0 31 F9 DD E9 00 23 04 F0 86 F8 4A 46 ...
T3CA4 001:086.811   CPU_WriteMem(668 bytes @ 0x20000164)
T3CA4 001:095.566 - 8.796ms returns 0x29C
T3CA4 001:095.591 JLINK_WriteMem(0x20000400, 0x164 Bytes, ...)
T3CA4 001:095.598   Data:  05 46 01 91 6F F0 01 02 58 46 0A 99 04 F0 BF F8 ...
T3CA4 001:095.618   CPU_WriteMem(356 bytes @ 0x20000400)
T3CA4 001:100.775 - 5.195ms returns 0x164
T3CA4 001:100.797 JLINK_HasError()
T3CA4 001:100.806 JLINK_WriteReg(R0, 0x08001000)
T3CA4 001:100.816 - 0.012ms returns 0
T3CA4 001:100.824 JLINK_WriteReg(R1, 0x00000400)
T3CA4 001:100.845 - 0.024ms returns 0
T3CA4 001:100.868 JLINK_WriteReg(R2, 0x20000164)
T3CA4 001:100.874 - 0.008ms returns 0
T3CA4 001:100.882 JLINK_WriteReg(R3, 0x00000000)
T3CA4 001:100.887 - 0.008ms returns 0
T3CA4 001:100.895 JLINK_WriteReg(R4, 0x00000000)
T3CA4 001:100.901 - 0.008ms returns 0
T3CA4 001:100.909 JLINK_WriteReg(R5, 0x00000000)
T3CA4 001:100.915 - 0.008ms returns 0
T3CA4 001:100.923 JLINK_WriteReg(R6, 0x00000000)
T3CA4 001:100.929 - 0.008ms returns 0
T3CA4 001:100.938 JLINK_WriteReg(R7, 0x00000000)
T3CA4 001:100.944 - 0.008ms returns 0
T3CA4 001:100.952 JLINK_WriteReg(R8, 0x00000000)
T3CA4 001:100.973 - 0.024ms returns 0
T3CA4 001:100.993 JLINK_WriteReg(R9, 0x20000160)
T3CA4 001:100.999 - 0.008ms returns 0
T3CA4 001:101.006 JLINK_WriteReg(R10, 0x00000000)
T3CA4 001:101.013 - 0.008ms returns 0
T3CA4 001:101.020 JLINK_WriteReg(R11, 0x00000000)
T3CA4 001:101.026 - 0.008ms returns 0
T3CA4 001:101.034 JLINK_WriteReg(R12, 0x00000000)
T3CA4 001:101.040 - 0.008ms returns 0
T3CA4 001:101.047 JLINK_WriteReg(R13 (SP), 0x20001000)
T3CA4 001:101.054 - 0.009ms returns 0
T3CA4 001:101.062 JLINK_WriteReg(R14, 0x20000001)
T3CA4 001:101.068 - 0.008ms returns 0
T3CA4 001:101.076 JLINK_WriteReg(R15 (PC), 0x200000F4)
T3CA4 001:101.082 - 0.008ms returns 0
T3CA4 001:101.089 JLINK_WriteReg(XPSR, 0x01000000)
T3CA4 001:101.095 - 0.008ms returns 0
T3CA4 001:101.885 JLINK_WriteReg(MSP, 0x20001000)
T3CA4 001:101.899 - 0.017ms returns 0
T3CA4 001:101.908 JLINK_WriteReg(PSP, 0x20001000)
T3CA4 001:101.914 - 0.009ms returns 0
T3CA4 001:101.921 JLINK_WriteReg(CFBP, 0x00000000)
T3CA4 001:101.927 - 0.008ms returns 0
T3CA4 001:101.935 JLINK_SetBPEx(Addr = 0x20000000, Type = 0xFFFFFFF2)
T3CA4 001:101.942 - 0.010ms returns 0x00000009
T3CA4 001:101.950 JLINK_Go()
T3CA4 001:101.964   CPU_ReadMem(4 bytes @ 0xE0001000)
T3CA4 001:106.445 - 4.517ms
T3CA4 001:106.476 JLINK_IsHalted()
T3CA4 001:107.116 - 0.648ms returns FALSE
T3CA4 001:107.132 JLINK_HasError()
T3CA4 001:110.342 JLINK_IsHalted()
T3CA4 001:111.038 - 0.705ms returns FALSE
T3CA4 001:111.054 JLINK_HasError()
T3CA4 001:112.276 JLINK_IsHalted()
T3CA4 001:112.987 - 0.719ms returns FALSE
T3CA4 001:113.003 JLINK_HasError()
T3CA4 001:114.233 JLINK_IsHalted()
T3CA4 001:114.957 - 0.734ms returns FALSE
T3CA4 001:114.977 JLINK_HasError()
T3CA4 001:116.181 JLINK_IsHalted()
T3CA4 001:116.969 - 0.796ms returns FALSE
T3CA4 001:116.986 JLINK_HasError()
T3CA4 001:118.135 JLINK_IsHalted()
T3CA4 001:118.797 - 0.676ms returns FALSE
T3CA4 001:118.821 JLINK_HasError()
T3CA4 001:120.086 JLINK_IsHalted()
T3CA4 001:120.768 - 0.696ms returns FALSE
T3CA4 001:120.791 JLINK_HasError()
T3CA4 001:122.039 JLINK_IsHalted()
T3CA4 001:122.706 - 0.678ms returns FALSE
T3CA4 001:122.741 JLINK_HasError()
T3CA4 001:124.011 JLINK_IsHalted()
T3CA4 001:124.750 - 0.750ms returns FALSE
T3CA4 001:124.770 JLINK_HasError()
T3CA4 001:125.948 JLINK_IsHalted()
T3CA4 001:126.712 - 0.784ms returns FALSE
T3CA4 001:126.744 JLINK_HasError()
T3CA4 001:127.920 JLINK_IsHalted()
T3CA4 001:128.725 - 0.830ms returns FALSE
T3CA4 001:128.760 JLINK_HasError()
T3CA4 001:129.842 JLINK_IsHalted()
T3CA4 001:130.693 - 0.864ms returns FALSE
T3CA4 001:130.715 JLINK_HasError()
T3CA4 001:131.834 JLINK_IsHalted()
T3CA4 001:132.663 - 0.839ms returns FALSE
T3CA4 001:132.681 JLINK_HasError()
T3CA4 001:133.814 JLINK_IsHalted()
T3CA4 001:134.660 - 0.852ms returns FALSE
T3CA4 001:134.674 JLINK_HasError()
T3CA4 001:136.691 JLINK_IsHalted()
T3CA4 001:140.545   CPU_ReadMem(2 bytes @ 0x20000000)
T3CA4 001:141.296 - 4.612ms returns TRUE
T3CA4 001:141.312 JLINK_ReadReg(R15 (PC))
T3CA4 001:141.321 - 0.012ms returns 0x20000000
T3CA4 001:141.329 JLINK_ClrBPEx(BPHandle = 0x00000009)
T3CA4 001:141.335 - 0.009ms returns 0x00
T3CA4 001:141.342 JLINK_ReadReg(R0)
T3CA4 001:141.348 - 0.008ms returns 0x00000000
T3CA4 001:142.159 JLINK_WriteMem(0x20000164, 0x29C Bytes, ...)
T3CA4 001:142.170   Data:  2D BF 30 B5 04 46 B0 F8 8C 00 89 B0 00 04 06 90 ...
T3CA4 001:142.187   CPU_WriteMem(668 bytes @ 0x20000164)
T3CA4 001:150.633 - 8.487ms returns 0x29C
T3CA4 001:150.656 JLINK_WriteMem(0x20000400, 0x164 Bytes, ...)
T3CA4 001:150.663   Data:  DE DB 76 1C 07 2E D8 DB DD E9 04 01 DD E9 0C 23 ...
T3CA4 001:150.681   CPU_WriteMem(356 bytes @ 0x20000400)
T3CA4 001:155.779 - 5.147ms returns 0x164
T3CA4 001:155.815 JLINK_HasError()
T3CA4 001:155.827 JLINK_WriteReg(R0, 0x08001400)
T3CA4 001:155.838 - 0.014ms returns 0
T3CA4 001:155.846 JLINK_WriteReg(R1, 0x00000400)
T3CA4 001:155.853 - 0.009ms returns 0
T3CA4 001:155.860 JLINK_WriteReg(R2, 0x20000164)
T3CA4 001:155.866 - 0.009ms returns 0
T3CA4 001:155.873 JLINK_WriteReg(R3, 0x00000000)
T3CA4 001:155.879 - 0.008ms returns 0
T3CA4 001:155.943 JLINK_WriteReg(R4, 0x00000000)
T3CA4 001:155.956 - 0.015ms returns 0
T3CA4 001:155.964 JLINK_WriteReg(R5, 0x00000000)
T3CA4 001:155.971 - 0.009ms returns 0
T3CA4 001:155.978 JLINK_WriteReg(R6, 0x00000000)
T3CA4 001:155.984 - 0.008ms returns 0
T3CA4 001:155.991 JLINK_WriteReg(R7, 0x00000000)
T3CA4 001:155.997 - 0.008ms returns 0
T3CA4 001:156.004 JLINK_WriteReg(R8, 0x00000000)
T3CA4 001:156.010 - 0.008ms returns 0
T3CA4 001:156.017 JLINK_WriteReg(R9, 0x20000160)
T3CA4 001:156.023 - 0.008ms returns 0
T3CA4 001:156.031 JLINK_WriteReg(R10, 0x00000000)
T3CA4 001:156.036 - 0.008ms returns 0
T3CA4 001:156.044 JLINK_WriteReg(R11, 0x00000000)
T3CA4 001:156.050 - 0.008ms returns 0
T3CA4 001:156.057 JLINK_WriteReg(R12, 0x00000000)
T3CA4 001:156.063 - 0.008ms returns 0
T3CA4 001:156.070 JLINK_WriteReg(R13 (SP), 0x20001000)
T3CA4 001:156.076 - 0.009ms returns 0
T3CA4 001:156.084 JLINK_WriteReg(R14, 0x20000001)
T3CA4 001:156.090 - 0.008ms returns 0
T3CA4 001:156.097 JLINK_WriteReg(R15 (PC), 0x200000F4)
T3CA4 001:156.103 - 0.008ms returns 0
T3CA4 001:156.110 JLINK_WriteReg(XPSR, 0x01000000)
T3CA4 001:156.116 - 0.008ms returns 0
T3CA4 001:156.123 JLINK_WriteReg(MSP, 0x20001000)
T3CA4 001:156.129 - 0.008ms returns 0
T3CA4 001:156.136 JLINK_WriteReg(PSP, 0x20001000)
T3CA4 001:156.142 - 0.013ms returns 0
T3CA4 001:156.156 JLINK_WriteReg(CFBP, 0x00000000)
T3CA4 001:156.162 - 0.009ms returns 0
T3CA4 001:156.170 JLINK_SetBPEx(Addr = 0x20000000, Type = 0xFFFFFFF2)
T3CA4 001:156.177 - 0.010ms returns 0x0000000A
T3CA4 001:156.186 JLINK_Go()
T3CA4 001:156.201   CPU_ReadMem(4 bytes @ 0xE0001000)
T3CA4 001:161.029 - 4.861ms
T3CA4 001:161.058 JLINK_IsHalted()
T3CA4 001:161.799 - 0.749ms returns FALSE
T3CA4 001:161.815 JLINK_HasError()
T3CA4 001:169.902 JLINK_IsHalted()
T3CA4 001:170.714 - 0.821ms returns FALSE
T3CA4 001:170.731 JLINK_HasError()
T3CA4 001:173.883 JLINK_IsHalted()
T3CA4 001:174.777 - 0.901ms returns FALSE
T3CA4 001:174.792 JLINK_HasError()
T3CA4 001:176.728 JLINK_IsHalted()
T3CA4 001:177.451 - 0.737ms returns FALSE
T3CA4 001:177.475 JLINK_HasError()
T3CA4 001:179.659 JLINK_IsHalted()
T3CA4 001:180.437 - 0.787ms returns FALSE
T3CA4 001:180.454 JLINK_HasError()
T3CA4 001:181.598 JLINK_IsHalted()
T3CA4 001:182.514 - 0.922ms returns FALSE
T3CA4 001:182.528 JLINK_HasError()
T3CA4 001:184.538 JLINK_IsHalted()
T3CA4 001:185.277 - 0.758ms returns FALSE
T3CA4 001:185.304 JLINK_HasError()
T3CA4 001:186.455 JLINK_IsHalted()
T3CA4 001:187.150 - 0.717ms returns FALSE
T3CA4 001:187.180 JLINK_HasError()
T3CA4 001:189.470 JLINK_IsHalted()
T3CA4 001:190.275 - 0.826ms returns FALSE
T3CA4 001:190.303 JLINK_HasError()
T3CA4 001:192.418 JLINK_IsHalted()
T3CA4 001:196.301   CPU_ReadMem(2 bytes @ 0x20000000)
T3CA4 001:197.076 - 4.666ms returns TRUE
T3CA4 001:197.093 JLINK_ReadReg(R15 (PC))
T3CA4 001:197.102 - 0.012ms returns 0x20000000
T3CA4 001:197.110 JLINK_ClrBPEx(BPHandle = 0x0000000A)
T3CA4 001:197.117 - 0.009ms returns 0x00
T3CA4 001:197.125 JLINK_ReadReg(R0)
T3CA4 001:197.131 - 0.008ms returns 0x00000000
T3CA4 001:197.718 JLINK_WriteMem(0x20000164, 0x29C Bytes, ...)
T3CA4 001:197.732   Data:  2B 46 03 F0 8A FC 32 46 3B 46 03 F0 86 FC 0A F0 ...
T3CA4 001:197.748   CPU_WriteMem(668 bytes @ 0x20000164)
T3CA4 001:206.244 - 8.538ms returns 0x29C
T3CA4 001:206.268 JLINK_WriteMem(0x20000400, 0x164 Bytes, ...)
T3CA4 001:206.276   Data:  61 46 03 F0 7D FD 28 D3 9F 49 3E AA 20 39 A1 F1 ...
T3CA4 001:206.294   CPU_WriteMem(356 bytes @ 0x20000400)
T3CA4 001:211.391 - 5.168ms returns 0x164
T3CA4 001:211.463 JLINK_HasError()
T3CA4 001:211.566 JLINK_WriteReg(R0, 0x08001800)
T3CA4 001:211.581 - 0.018ms returns 0
T3CA4 001:211.589 JLINK_WriteReg(R1, 0x00000400)
T3CA4 001:211.596 - 0.009ms returns 0
T3CA4 001:211.603 JLINK_WriteReg(R2, 0x20000164)
T3CA4 001:211.609 - 0.008ms returns 0
T3CA4 001:211.616 JLINK_WriteReg(R3, 0x00000000)
T3CA4 001:211.622 - 0.008ms returns 0
T3CA4 001:211.629 JLINK_WriteReg(R4, 0x00000000)
T3CA4 001:211.635 - 0.008ms returns 0
T3CA4 001:211.643 JLINK_WriteReg(R5, 0x00000000)
T3CA4 001:211.648 - 0.008ms returns 0
T3CA4 001:211.656 JLINK_WriteReg(R6, 0x00000000)
T3CA4 001:211.662 - 0.008ms returns 0
T3CA4 001:211.669 JLINK_WriteReg(R7, 0x00000000)
T3CA4 001:211.675 - 0.008ms returns 0
T3CA4 001:211.682 JLINK_WriteReg(R8, 0x00000000)
T3CA4 001:211.688 - 0.008ms returns 0
T3CA4 001:211.695 JLINK_WriteReg(R9, 0x20000160)
T3CA4 001:211.701 - 0.008ms returns 0
T3CA4 001:211.708 JLINK_WriteReg(R10, 0x00000000)
T3CA4 001:211.714 - 0.008ms returns 0
T3CA4 001:211.721 JLINK_WriteReg(R11, 0x00000000)
T3CA4 001:211.727 - 0.008ms returns 0
T3CA4 001:211.734 JLINK_WriteReg(R12, 0x00000000)
T3CA4 001:211.740 - 0.008ms returns 0
T3CA4 001:211.747 JLINK_WriteReg(R13 (SP), 0x20001000)
T3CA4 001:211.754 - 0.009ms returns 0
T3CA4 001:211.761 JLINK_WriteReg(R14, 0x20000001)
T3CA4 001:211.767 - 0.008ms returns 0
T3CA4 001:211.774 JLINK_WriteReg(R15 (PC), 0x200000F4)
T3CA4 001:211.781 - 0.008ms returns 0
T3CA4 001:211.788 JLINK_WriteReg(XPSR, 0x01000000)
T3CA4 001:211.794 - 0.008ms returns 0
T3CA4 001:211.801 JLINK_WriteReg(MSP, 0x20001000)
T3CA4 001:211.807 - 0.008ms returns 0
T3CA4 001:211.816 JLINK_WriteReg(PSP, 0x20001000)
T3CA4 001:211.822 - 0.009ms returns 0
T3CA4 001:211.830 JLINK_WriteReg(CFBP, 0x00000000)
T3CA4 001:211.852 - 0.029ms returns 0
T3CA4 001:211.868 JLINK_SetBPEx(Addr = 0x20000000, Type = 0xFFFFFFF2)
T3CA4 001:211.876 - 0.011ms returns 0x0000000B
T3CA4 001:211.884 JLINK_Go()
T3CA4 001:211.898   CPU_ReadMem(4 bytes @ 0xE0001000)
T3CA4 001:216.583 - 4.713ms
T3CA4 001:216.620 JLINK_IsHalted()
T3CA4 001:217.445 - 0.832ms returns FALSE
T3CA4 001:217.473 JLINK_HasError()
T3CA4 001:223.672 JLINK_IsHalted()
T3CA4 001:224.622 - 0.957ms returns FALSE
T3CA4 001:224.637 JLINK_HasError()
T3CA4 001:227.973 JLINK_IsHalted()
T3CA4 001:228.721 - 0.757ms returns FALSE
T3CA4 001:228.738 JLINK_HasError()
T3CA4 001:230.444 JLINK_IsHalted()
T3CA4 001:231.209 - 0.775ms returns FALSE
T3CA4 001:231.227 JLINK_HasError()
T3CA4 001:236.262 JLINK_IsHalted()
T3CA4 001:236.943 - 0.687ms returns FALSE
T3CA4 001:236.959 JLINK_HasError()
T3CA4 001:238.193 JLINK_IsHalted()
T3CA4 001:238.847 - 0.662ms returns FALSE
T3CA4 001:238.862 JLINK_HasError()
T3CA4 001:241.148 JLINK_IsHalted()
T3CA4 001:241.898 - 0.757ms returns FALSE
T3CA4 001:241.912 JLINK_HasError()
T3CA4 001:243.086 JLINK_IsHalted()
T3CA4 001:243.932 - 0.853ms returns FALSE
T3CA4 001:243.946 JLINK_HasError()
T3CA4 001:245.079 JLINK_IsHalted()
T3CA4 001:245.803 - 0.734ms returns FALSE
T3CA4 001:245.822 JLINK_HasError()
T3CA4 001:255.813 JLINK_IsHalted()
T3CA4 001:259.771   CPU_ReadMem(2 bytes @ 0x20000000)
T3CA4 001:260.576 - 4.769ms returns TRUE
T3CA4 001:260.591 JLINK_ReadReg(R15 (PC))
T3CA4 001:260.600 - 0.011ms returns 0x20000000
T3CA4 001:260.608 JLINK_ClrBPEx(BPHandle = 0x0000000B)
T3CA4 001:260.617 - 0.012ms returns 0x00
T3CA4 001:260.625 JLINK_ReadReg(R0)
T3CA4 001:260.645 - 0.023ms returns 0x00000000
T3CA4 001:261.224 JLINK_WriteMem(0x20000164, 0x29C Bytes, ...)
T3CA4 001:261.239   Data:  6B F9 01 E0 FD E0 0A E0 01 20 08 F0 95 F9 19 20 ...
T3CA4 001:261.270   CPU_WriteMem(668 bytes @ 0x20000164)
